TB670 9095:601.152   SEGGER J-Link V8.12a Log File
TB670 9095:602.176   DLL Compiled: Jan  9 2025 14:34:24
TB670 9095:603.200   Logging started @ 2025-02-26 01:14
TB670 9095:603.200   Process: C:\Program Files (x86)\Atmel\Studio\7.0\atbackend\atbackend.exe
TB670 9095:603.200 - 79.023ms 
TB670 9095:608.320 JLINK_ExecCommand("Device = AT91SAM4S8B", ...). 
TB670 9095:608.320   Device "ATSAM4S8BA" selected.
TB670 9095:608.320 - 0.880ms returns 0x00
TB670 9095:608.320 JLINK_TIF_Select(JLINKARM_TIF_SWD)
TB670 9095:610.368 - 1.357ms returns 0x00
TB670 9095:611.392 JLINK_SetSpeed(4000)
TB670 9095:611.392 - 0.389ms 
TB670 9095:611.392 JLINK_ResetPullsRESET(OFF)
TB670 9095:612.416 - 0.211ms 
TB670 9095:612.416 JLINK_Connect()
TB670 9095:613.440   Found SW-DP with ID 0x2BA01477
TB670 9095:618.560   DPIDR: 0x2BA01477
TB670 9095:618.560   CoreSight SoC-400 or earlier
TB670 9095:618.560   Scanning AP map to find all available APs
TB670 9095:619.584   AP[1]: Stopped AP scan as end of AP map has been reached
TB670 9095:619.584   AP[0]: AHB-AP (IDR: 0x24770011, ADDR: 0x00000000)
TB670 9095:620.608   Iterating through AP map to find AHB-AP to use
TB670 9095:621.632   AP[0]: Core found
TB670 9095:621.632   AP[0]: AHB-AP ROM base: 0xE00FF000
TB670 9095:622.656   CPUID register: 0x410FC241. Implementer code: 0x41 (ARM)
TB670 9095:622.656   Found Cortex-M4 r0p1, Little endian.
TB670 9095:623.680   -- Max. mem block: 0x00002B08
TB670 9095:624.704   Cortex-M: The connected J-Link (S/N 801002389) uses an old firmware module: V2 (current is 3)
TB670 9095:624.704   CPU_ReadMem(4 bytes @ 0xE000EDF0)
TB670 9095:624.704   CPU_WriteMem(4 bytes @ 0xE000EDF0)
TB670 9095:625.728   CPU_ReadMem(4 bytes @ 0xE0002000)
TB670 9095:626.752   FPUnit: 6 code (BP) slots and 2 literal slots
TB670 9095:626.752   CPU_ReadMem(4 bytes @ 0xE000EDFC)
TB670 9095:627.776   CPU_WriteMem(4 bytes @ 0xE000EDFC)
TB670 9095:627.776   CPU_ReadMem(4 bytes @ 0xE0001000)
TB670 9095:628.800   CPU_WriteMem(4 bytes @ 0xE0001000)
TB670 9095:628.800   CPU_ReadMem(4 bytes @ 0xE000ED88)
TB670 9095:629.824   CPU_WriteMem(4 bytes @ 0xE000ED88)
TB670 9095:629.824   CPU_ReadMem(4 bytes @ 0xE000ED88)
TB670 9095:630.848   CPU_WriteMem(4 bytes @ 0xE000ED88)
TB670 9095:631.872   CoreSight components:
TB670 9095:631.872   ROMTbl[0] @ E00FF000
TB670 9095:631.872   CPU_ReadMem(64 bytes @ 0xE00FF000)
TB670 9095:632.896   CPU_ReadMem(32 bytes @ 0xE000EFE0)
TB670 9095:632.896   [0][0]: E000E000 CID B105E00D PID 000BB000 SCS
TB670 9095:632.896   CPU_ReadMem(32 bytes @ 0xE0001FE0)
TB670 9095:633.920   [0][1]: E0001000 CID B105E00D PID 003BB002 DWT
TB670 9095:633.920   CPU_ReadMem(32 bytes @ 0xE0002FE0)
TB670 9095:634.944   [0][2]: E0002000 CID B105E00D PID 002BB003 FPB
TB670 9095:635.968   CPU_ReadMem(32 bytes @ 0xE0000FE0)
TB670 9095:636.992   [0][3]: E0000000 CID B105E00D PID 003BB001 ITM
TB670 9095:636.992   CPU_ReadMem(32 bytes @ 0xE0040FE0)
TB670 9095:636.992   [0][4]: E0040000 CID B105900D PID 000BB9A1 TPIU
TB670 9095:636.992 - 25.388ms returns 0x00
TB670 9095:636.992 JLINK_Halt()
TB670 9095:641.088 - 3.270ms returns 0x00
TB670 9095:641.088 JLINK_BeginDownload(Flags = 0x00000000)
TB670 9095:641.088 - 0.086ms 
TB670 9095:641.088 JLINK_WriteMem(0x400E0A04, 0x4 Bytes, ...)
TB670 9095:641.088   Data:  0B 01 00 5A
TB670 9095:641.088   CPU_WriteMem(4 bytes @ 0x400E0A04)
TB670 9095:641.088 - 0.961ms returns 0x4
TB670 9095:642.112 JLINK_EndDownload()
TB670 9095:642.112 - 0.081ms returns 0 (0x0)
TB670 9095:642.112 JLINK_ReadMemHW(0x400E0A08, 0x0004 Bytes, ...)
TB670 9095:642.112   CPU_ReadMem(4 bytes @ 0x400E0A08)
TB670 9095:643.136   Data:  01 00 00 00
TB670 9095:643.136 - 0.703ms returns 0
TB670 9095:643.136 JLINK_SetResetType(JLINKARM_CM3_RESET_TYPE_NORMAL)
TB670 9095:643.136 - 0.083ms returns JLINKARM_CM3_RESET_TYPE_NORMAL
TB670 9095:643.136 JLINK_Reset()
TB670 9095:644.160   CPU_ReadMem(16 bytes @ 0x20000000)
TB670 9095:644.160   CPU_WriteMem(16 bytes @ 0x20000000)
TB670 9095:645.184   CPU_ReadMem(4 bytes @ 0xE000EDFC)
TB670 9095:645.184   CPU_WriteMem(4 bytes @ 0xE000EDFC)
TB670 9095:646.208   CPU_ReadMem(4 bytes @ 0xE0001000)
TB670 9095:661.568   CPU_WriteMem(4 bytes @ 0xE000EDFC)
TB670 9095:662.592   CPU_WriteMem(16 bytes @ 0x20000000)
TB670 9095:666.688   CPU_WriteMem(4 bytes @ 0xE0002000)
TB670 9095:667.712   CPU_ReadMem(4 bytes @ 0xE000EDFC)
TB670 9095:668.736   CPU_ReadMem(4 bytes @ 0xE0001000)
TB670 9095:669.760 - 25.910ms 
TB670 9095:669.760 JLINK_JTAG_GetDeviceID(DeviceIndex = 0)
TB670 9095:669.760 - 0.099ms returns 0
TB670 9095:669.760 JLINK_ReadMemU32(0x400E0740, 0x1 Items)
TB670 9095:669.760   CPU_ReadMem(4 bytes @ 0x400E0740)
TB670 9095:670.784   Data:  E0 0A 9C 28
TB670 9095:670.784 - 0.830ms returns 1 (0x1)
TB670 9095:670.784 JLINK_ReadMemU32(0x400E0744, 0x1 Items)
TB670 9095:670.784   CPU_ReadMem(4 bytes @ 0x400E0744)
TB670 9095:670.784   Data:  00 00 00 00
TB670 9095:671.808 - 0.698ms returns 1 (0x1)
TB670 9095:678.976 JLINK_BeginDownload(Flags = 0x00000000)
TB670 9095:678.976 - 0.165ms 
TB670 9095:678.976 JLINK_WriteMem(0x00400000, 0x4000 Bytes, ...)
TB670 9095:678.976   Data:  C8 3E 00 20 95 10 40 00 93 10 40 00 93 10 40 00 ...
TB670 9095:678.976   completely In flash
TB670 9095:678.976 - 0.480ms returns 0x4000
TAED4 9095:678.976 JLINK_IsHalted()
TAED4 9095:680.000 - 0.063ms returns TRUE
TB670 9095:680.000 JLINK_WriteMem(0x00404000, 0x3244 Bytes, ...)
TB670 9095:680.000   Data:  F1 60 42 F0 01 02 8E 60 5A 60 00 F0 11 FB 08 34 ...
TB670 9095:680.000   completely In flash
TB670 9095:680.000 - 0.183ms returns 0x3244
TAED4 9095:680.000 JLINK_GetMOEs(...)
TAED4 9095:680.000   CPU_ReadMem(4 bytes @ 0xE000ED30)
TAED4 9095:681.024 - 0.680ms returns 0x01
TAED4 9095:682.048 JLINK_ReadReg(R15 (PC))
TAED4 9095:682.048   CPU_ReadMem(4 bytes @ 0xE000ED90)
TAED4 9095:682.048   CPU_ReadMem(4 bytes @ 0xE000ED94)
TAED4 9095:683.072    -- --------------------------------------
TAED4 9095:683.072    -- Flash bank @ 0x00400000: Default: L2 verify disabled because algorithm performs L1 verify
TAED4 9095:683.072    -- Start of determining dirty areas in flash cache
TAED4 9095:683.072    -- Filling invalid ranges in sector buffer (flash cache) for sector @ 0x00400000 if necessary
TAED4 9095:683.072    -- Filling invalid ranges in sector buffer (flash cache) for sector @ 0x00400200 if necessary
TAED4 9095:683.072    -- Filling invalid ranges in sector buffer (flash cache) for sector @ 0x00400400 if necessary
TAED4 9095:683.072    -- Filling invalid ranges in sector buffer (flash cache) for sector @ 0x00400600 if necessary
TAED4 9095:683.072    -- Filling invalid ranges in sector buffer (flash cache) for sector @ 0x00400800 if necessary
TAED4 9095:683.072    -- Filling invalid ranges in sector buffer (flash cache) for sector @ 0x00400A00 if necessary
TAED4 9095:683.072    -- Filling invalid ranges in sector buffer (flash cache) for sector @ 0x00400C00 if necessary
TAED4 9095:683.072    -- Filling invalid ranges in sector buffer (flash cache) for sector @ 0x00400E00 if necessary
TAED4 9095:684.096    -- Filling invalid ranges in sector buffer (flash cache) for sector @ 0x00401000 if necessary
TAED4 9095:684.096    -- Filling invalid ranges in sector buffer (flash cache) for sector @ 0x00401200 if necessary
TAED4 9095:684.096    -- Filling invalid ranges in sector buffer (flash cache) for sector @ 0x00401400 if necessary
TAED4 9095:684.096    -- Filling invalid ranges in sector buffer (flash cache) for sector @ 0x00401600 if necessary
TAED4 9095:684.096    -- Filling invalid ranges in sector buffer (flash cache) for sector @ 0x00401800 if necessary
TAED4 9095:684.096    -- Filling invalid ranges in sector buffer (flash cache) for sector @ 0x00401A00 if necessary
TAED4 9095:684.096    -- Filling invalid ranges in sector buffer (flash cache) for sector @ 0x00401C00 if necessary
TAED4 9095:684.096    -- Filling invalid ranges in sector buffer (flash cache) for sector @ 0x00401E00 if necessary
TAED4 9095:684.096    -- Filling invalid ranges in sector buffer (flash cache) for sector @ 0x00402000 if necessary
TAED4 9095:684.096    -- Filling invalid ranges in sector buffer (flash cache) for sector @ 0x00402200 if necessary
TAED4 9095:684.096    -- Filling invalid ranges in sector buffer (flash cache) for sector @ 0x00402400 if necessary
TAED4 9095:684.096    -- Filling invalid ranges in sector buffer (flash cache) for sector @ 0x00402600 if necessary
TAED4 9095:684.096    -- Filling invalid ranges in sector buffer (flash cache) for sector @ 0x00402800 if necessary
TAED4 9095:685.120    -- Filling invalid ranges in sector buffer (flash cache) for sector @ 0x00402A00 if necessary
TAED4 9095:685.120    -- Filling invalid ranges in sector buffer (flash cache) for sector @ 0x00402C00 if necessary
TAED4 9095:685.120    -- Filling invalid ranges in sector buffer (flash cache) for sector @ 0x00402E00 if necessary
TAED4 9095:685.120    -- Filling invalid ranges in sector buffer (flash cache) for sector @ 0x00403000 if necessary
TAED4 9095:685.120    -- Filling invalid ranges in sector buffer (flash cache) for sector @ 0x00403200 if necessary
TAED4 9095:685.120    -- Filling invalid ranges in sector buffer (flash cache) for sector @ 0x00403400 if necessary
TAED4 9095:685.120    -- Filling invalid ranges in sector buffer (flash cache) for sector @ 0x00403600 if necessary
TAED4 9095:685.120    -- Filling invalid ranges in sector buffer (flash cache) for sector @ 0x00403800 if necessary
TAED4 9095:685.120    -- Filling invalid ranges in sector buffer (flash cache) for sector @ 0x00403A00 if necessary
TAED4 9095:685.120    -- Filling invalid ranges in sector buffer (flash cache) for sector @ 0x00403C00 if necessary
TAED4 9095:685.120    -- Filling invalid ranges in sector buffer (flash cache) for sector @ 0x00403E00 if necessary
TAED4 9095:685.120    -- Filling invalid ranges in sector buffer (flash cache) for sector @ 0x00404000 if necessary
TAED4 9095:685.120    -- Filling invalid ranges in sector buffer (flash cache) for sector @ 0x00405000 if necessary
TAED4 9095:685.120    -- Filling invalid ranges in sector buffer (flash cache) for sector @ 0x00406000 if necessary
TAED4 9095:686.144    -- Filling invalid ranges in sector buffer (flash cache) for sector @ 0x00407000 if necessary
TAED4 9095:686.144    -- End of determining dirty areas
TAED4 9095:686.144    -- Start of preparing flash programming
TAED4 9095:686.144    -- Calculating RAM usage
TAED4 9095:686.144    -- RAM usage = 3924 Bytes
TAED4 9095:686.144    -- Preserving CPU registers
TAED4 9095:686.144    -- Preparing target
TAED4 9095:845.888    -- Preserving target RAM temporarily used for programming
TAED4 9095:866.368    -- Downloading RAMCode
TAED4 9095:886.848    -- Preparing RAMCode
TAED4 9095:892.992    -- End of preparing flash programming
TAED4 9095:894.016    -- CPU is running at 90000 kHz.
TAED4 9095:895.040    -- Start of comparing flash
TAED4 9095:895.040    -- CRC check was estimated as fastest method
TAED4 9095:903.232    -- Comparing range 0x400000 - 0x403FFF (32 Sectors, 16 KB), using multi-block CRC calculation
TAED4 9095:911.424    -- CRC does not match for sectors 0-31
TAED4 9095:911.424    -- Comparing range 0x404000 - 0x407FFF (4 Sectors, 16 KB), using multi-block CRC calculation
TAED4 9095:915.520    -- CRC does not match for sectors 0-3
TAED4 9095:916.544    -- End of comparing flash
TAED4 9095:916.544    -- Start of erasing sectors
TAED4 9095:916.544    -- End of erasing sectors
TAED4 9095:916.544    -- Start of flash programming
TAED4 9095:916.544    -- Programming range 0x00400000 - 0x00403FFF ( 32 Sectors, 16 KB)
TAED4 9096:037.376    -- Programming range 0x00404000 - 0x00407FFF (  4 Sectors, 16 KB)
TAED4 9096:143.872    -- End of flash programming
TAED4 9096:144.896    -- 0x400000 - 0x403FFF ( 32 Sectors, 16 KB)
TAED4 9096:144.896    -- 0x404000 - 0x407FFF (  4 Sectors, 16 KB)
TAED4 9096:144.896    -- Start of restoring
TAED4 9096:144.896    -- Restoring RAMCode
TAED4 9096:159.232    -- Restoring target memory
TAED4 9096:178.688    -- Restore target
TAED4 9096:231.936    -- Restoring CPU registers
TAED4 9096:232.960    -- End of restoring
TAED4 9096:233.984    -- Bank 0 @ 0x00400000: 2 ranges affected (32768 bytes)
TAED4 9096:233.984    -- Total: 0.547s (Prepare: 0.208s, Compare: 0.022s, Erase: 0.000s, Program & Verify: 0.237s, Restore: 0.079s)
TAED4 9096:233.984    -- Program & Verify speed: 135 KB/s
TAED4 9096:236.032 - 554.734ms returns 0xFFFFFFFE
TB670 9096:236.032 JLINK_WriteMem(0x00407244, 0x8 Bytes, ...)
TB670 9096:236.032   Data:  10 EE FF 7F 01 00 00 00
TB670 9096:236.032   completely In flash
TB670 9096:237.056 - 0.552ms returns 0x8
TB670 9096:237.056 JLINK_WriteMem(0x0040724C, 0x9C0 Bytes, ...)
TB670 9096:237.056   Data:  BF F3 5F 8F 01 38 FB D1 70 47 00 00 00 09 3D 00 ...
TB670 9096:238.080   completely In flash
TB670 9096:238.080 - 0.373ms returns 0x9C0
TB670 9096:241.152 JLINK_EndDownload()
TB670 9096:242.176   CPU_ReadMem(4 bytes @ 0xE000ED90)
TB670 9096:242.176   CPU_ReadMem(4 bytes @ 0xE000ED94)
TB670 9096:243.200    -- --------------------------------------
TB670 9096:243.200    -- Flash bank @ 0x00400000: Default: L2 verify disabled because algorithm performs L1 verify
TB670 9096:243.200    -- Start of determining dirty areas in flash cache
TB670 9096:243.200    -- Filling invalid ranges in sector buffer (flash cache) for sector @ 0x00407000 if necessary
TB670 9096:243.200    -- End of determining dirty areas
TB670 9096:243.200    -- Start of preparing flash programming
TB670 9096:243.200    -- Calculating RAM usage
TB670 9096:243.200    -- RAM usage = 2900 Bytes
TB670 9096:243.200    -- Preserving CPU registers
TB670 9096:243.200    -- Preparing target
TB670 9096:404.992    -- Preserving target RAM temporarily used for programming
TB670 9096:421.376    -- Downloading RAMCode
TB670 9096:439.808    -- Preparing RAMCode
TB670 9096:464.384    -- End of preparing flash programming
TB670 9096:466.432    -- CPU is running at 90000 kHz.
TB670 9096:466.432    -- Start of comparing flash
TB670 9096:466.432    -- CRC check was estimated as fastest method
TB670 9096:474.624    -- Comparing range 0x407000 - 0x407FFF (1 Sector, 4 KB), using multi-block CRC calculation
TB670 9096:480.768    -- CRC does not match for sector 0
TB670 9096:480.768    -- End of comparing flash
TB670 9096:481.792    -- Start of erasing sectors
TB670 9096:481.792    -- Erasing range 0x00407000 - 0x00407FFF (  1 Sector, 4 KB)
TB670 9096:510.464    -- End of erasing sectors
TB670 9096:510.464    -- Start of flash programming
TB670 9096:511.488    -- Programming range 0x00407000 - 0x00407FFF (  1 Sector, 4 KB)
TB670 9096:542.208    -- End of flash programming
TB670 9096:542.208    -- 0x407000 - 0x407FFF (  1 Sector, 4 KB)
TB670 9096:543.232    -- Start of restoring
TB670 9096:543.232    -- Restoring RAMCode
TB670 9096:554.496    -- Restoring target memory
TB670 9096:569.856    -- Restore target
TB670 9096:622.080    -- Restoring CPU registers
TB670 9096:622.080    -- End of restoring
TB670 9096:623.104    -- Bank 0 @ 0x00400000: 1 range affected (4096 bytes)
TB670 9096:623.104    -- Total: 0.378s (Prepare: 0.222s, Compare: 0.015s, Erase: 0.029s, Program & Verify: 0.038s, Restore: 0.072s)
TB670 9096:623.104    -- Program & Verify speed: 104 KB/s
TB670 9096:624.128 - 383.806ms returns 4096 (0x1000)
TB670 9096:625.152 JLINK_SetResetType(JLINKARM_CM3_RESET_TYPE_NORMAL)
TB670 9096:625.152 - 0.286ms returns JLINKARM_CM3_RESET_TYPE_NORMAL
TB670 9096:625.152 JLINK_Reset()
TB670 9096:625.152   CPU_ReadMem(16 bytes @ 0x20000000)
TB670 9096:626.176   CPU_WriteMem(16 bytes @ 0x20000000)
TB670 9096:627.200   CPU_ReadMem(4 bytes @ 0xE000EDFC)
TB670 9096:628.224   CPU_WriteMem(4 bytes @ 0xE000EDFC)
TB670 9096:628.224   CPU_ReadMem(4 bytes @ 0xE0001000)
TB670 9096:646.656   CPU_WriteMem(4 bytes @ 0xE000EDFC)
TB670 9096:648.704   CPU_WriteMem(16 bytes @ 0x20000000)
TB670 9096:654.848   CPU_WriteMem(4 bytes @ 0xE0002000)
TB670 9096:655.872   CPU_ReadMem(4 bytes @ 0xE000EDFC)
TB670 9096:655.872   CPU_ReadMem(4 bytes @ 0xE0001000)
TB670 9096:656.896 - 31.034ms 
T9890 9096:763.392 JLINK_Halt()
T9890 9096:763.392 - 0.488ms returns 0x00
T9890 9096:763.392 JLINK_ReadReg(R15 (PC))
T9890 9096:764.416 - 0.183ms returns 0x00401094
T9890 9096:764.416 JLINK_ReadReg(R13 (SP))
T9890 9096:764.416 - 0.153ms returns 0x20003EC8
T9890 9096:769.536 JLINK_ReadMemHW(0x00401094, 0x0004 Bytes, ...)
T9890 9096:769.536   CPU_ReadMem(4 bytes @ 0x00401094)
T9890 9096:770.560   Data:  08 B5 21 4B
T9890 9096:770.560 - 0.882ms returns 0
T9890 9096:770.560 JLINK_ReadReg(R0)
T9890 9096:771.584 - 0.078ms returns 0x400E1400
T9890 9096:771.584 JLINK_ReadReg(R1)
T9890 9096:771.584 - 0.047ms returns 0x40C00000
T9890 9096:771.584 JLINK_ReadReg(R2)
T9890 9096:771.584 - 0.045ms returns 0xA5000005
T9890 9096:771.584 JLINK_ReadReg(R3)
T9890 9096:771.584 - 0.037ms returns 0x00400849
T9890 9096:771.584 JLINK_ReadReg(R4)
T9890 9096:771.584 - 0.037ms returns 0x00000001
T9890 9096:771.584 JLINK_ReadReg(R5)
T9890 9096:771.584 - 0.037ms returns 0x00400D25
T9890 9096:771.584 JLINK_ReadReg(R6)
T9890 9096:771.584 - 0.039ms returns 0x00000030
T9890 9096:771.584 JLINK_ReadReg(R7)
T9890 9096:771.584 - 0.036ms returns 0x40018000
T9890 9096:771.584 JLINK_ReadReg(R8)
T9890 9096:771.584 - 0.036ms returns 0xF2CD86A5
T9890 9096:771.584 JLINK_ReadReg(R9)
T9890 9096:771.584 - 0.038ms returns 0xFE84C8CF
T9890 9096:771.584 JLINK_ReadReg(R10)
T9890 9096:771.584 - 0.037ms returns 0x8EF7BA9A
T9890 9096:771.584 JLINK_ReadReg(R11)
T9890 9096:771.584 - 0.036ms returns 0x6590C9D4
T9890 9096:771.584 JLINK_ReadReg(R12)
T9890 9096:771.584 - 0.036ms returns 0x00000002
T9890 9096:771.584 JLINK_ReadReg(R13 (SP))
T9890 9096:771.584 - 0.036ms returns 0x20003EC8
T9890 9096:771.584 JLINK_ReadReg(R14)
T9890 9096:771.584 - 0.036ms returns 0xFFFFFFFF
T9890 9096:771.584 JLINK_ReadReg(R15 (PC))
T9890 9096:771.584 - 0.036ms returns 0x00401094
T9890 9096:771.584 JLINK_ReadReg(XPSR)
T9890 9096:771.584 - 0.037ms returns 0x01000000
T9890 9096:771.584 JLINK_ReadReg(MSP)
T9890 9096:771.584 - 0.036ms returns 0x20003EC8
T9890 9096:771.584 JLINK_ReadReg(PSP)
T9890 9096:771.584 - 0.036ms returns 0xC9283C6C
T9890 9096:771.584 JLINK_ReadReg(PRIMASK)
T9890 9096:771.584 - 0.037ms returns 0x00000000
T9890 9096:771.584 JLINK_ReadReg(BASEPRI)
T9890 9096:771.584 - 0.036ms returns 0x00000000
T9890 9096:772.608 JLINK_ReadReg(FAULTMASK)
T9890 9096:772.608 - 0.037ms returns 0x00000000
T9890 9096:772.608 JLINK_ReadReg(CONTROL)
T9890 9096:772.608 - 0.036ms returns 0x00000000
T9890 9096:772.608 JLINK_ReadMemHW(0x00401094, 0x0002 Bytes, ...)
T9890 9096:772.608   CPU_ReadMem(2 bytes @ 0x00401094)
T9890 9096:773.632   Data:  08 B5
T9890 9096:773.632 - 0.998ms returns 0
T9890 9096:824.832 JLINK_ReadReg(R0)
T9890 9096:824.832 - 0.228ms returns 0x400E1400
T9890 9096:824.832 JLINK_ReadReg(R1)
T9890 9096:824.832 - 0.055ms returns 0x40C00000
T9890 9096:824.832 JLINK_ReadReg(R2)
T9890 9096:824.832 - 0.128ms returns 0xA5000005
T9890 9096:824.832 JLINK_ReadReg(R3)
T9890 9096:824.832 - 0.079ms returns 0x00400849
T9890 9096:824.832 JLINK_ReadReg(R4)
T9890 9096:825.856 - 0.105ms returns 0x00000001
T9890 9096:825.856 JLINK_ReadReg(R5)
T9890 9096:825.856 - 0.033ms returns 0x00400D25
T9890 9096:825.856 JLINK_ReadReg(R6)
T9890 9096:825.856 - 0.080ms returns 0x00000030
T9890 9096:825.856 JLINK_ReadReg(R7)
T9890 9096:825.856 - 0.083ms returns 0x40018000
T9890 9096:825.856 JLINK_ReadReg(R8)
T9890 9096:825.856 - 0.122ms returns 0xF2CD86A5
T9890 9096:825.856 JLINK_ReadReg(R9)
T9890 9096:825.856 - 0.036ms returns 0xFE84C8CF
T9890 9096:826.880 JLINK_ReadReg(R10)
T9890 9096:826.880 - 0.040ms returns 0x8EF7BA9A
T9890 9096:826.880 JLINK_ReadReg(R11)
T9890 9096:826.880 - 0.035ms returns 0x6590C9D4
T9890 9096:826.880 JLINK_ReadReg(R12)
T9890 9096:826.880 - 0.035ms returns 0x00000002
T9890 9096:826.880 JLINK_ReadReg(R13 (SP))
T9890 9096:826.880 - 0.035ms returns 0x20003EC8
T9890 9096:826.880 JLINK_ReadReg(R14)
T9890 9096:826.880 - 0.035ms returns 0xFFFFFFFF
T9890 9096:826.880 JLINK_ReadReg(R15 (PC))
T9890 9096:826.880 - 0.035ms returns 0x00401094
T9890 9096:826.880 JLINK_ReadReg(XPSR)
T9890 9096:826.880 - 0.041ms returns 0x01000000
T9890 9096:826.880 JLINK_ReadReg(MSP)
T9890 9096:826.880 - 0.035ms returns 0x20003EC8
T9890 9096:826.880 JLINK_ReadReg(PSP)
T9890 9096:826.880 - 0.034ms returns 0xC9283C6C
T9890 9096:826.880 JLINK_ReadReg(PRIMASK)
T9890 9096:826.880 - 0.035ms returns 0x00000000
T9890 9096:826.880 JLINK_ReadReg(BASEPRI)
T9890 9096:827.904 - 0.035ms returns 0x00000000
T9890 9096:827.904 JLINK_ReadReg(FAULTMASK)
T9890 9096:827.904 - 0.034ms returns 0x00000000
T9890 9096:827.904 JLINK_ReadReg(CONTROL)
T9890 9096:827.904 - 0.035ms returns 0x00000000
T9890 9096:830.976 JLINK_ReadMemHW(0x00401094, 0x0004 Bytes, ...)
T9890 9096:830.976   CPU_ReadMem(4 bytes @ 0x00401094)
T9890 9096:832.000   Data:  08 B5 21 4B
T9890 9096:832.000 - 0.819ms returns 0
TAED4 9096:839.168 JLINK_IsHalted()
TAED4 9096:840.192 - 0.145ms returns TRUE
T9890 9096:853.504 JLINK_SetResetType(JLINKARM_CM3_RESET_TYPE_NORMAL)
T9890 9096:853.504 - 0.376ms returns JLINKARM_CM3_RESET_TYPE_NORMAL
T9890 9096:853.504 JLINK_Reset()
T9890 9096:853.504   CPU_ReadMem(16 bytes @ 0x20000000)
T9890 9096:854.528   CPU_WriteMem(16 bytes @ 0x20000000)
T9890 9096:855.552   CPU_ReadMem(4 bytes @ 0xE000EDFC)
T9890 9096:856.576   CPU_WriteMem(4 bytes @ 0xE000EDFC)
T9890 9096:856.576   CPU_ReadMem(4 bytes @ 0xE0001000)
T9890 9096:857.600   CPU_WriteMem(4 bytes @ 0xE0001004)
T9890 9096:872.960   CPU_WriteMem(4 bytes @ 0xE000EDFC)
T9890 9096:873.984   CPU_WriteMem(16 bytes @ 0x20000000)
T9890 9096:878.080   CPU_WriteMem(4 bytes @ 0xE0002000)
T9890 9096:878.080   CPU_ReadMem(4 bytes @ 0xE000EDFC)
T9890 9096:879.104   CPU_ReadMem(4 bytes @ 0xE0001000)
T9890 9096:879.104 - 26.166ms 
TAED4 9096:880.128 JLINK_IsHalted()
TAED4 9096:880.128 - 0.056ms returns TRUE
TAED4 9096:880.128 JLINK_GetMOEs(...)
TAED4 9096:880.128   CPU_ReadMem(4 bytes @ 0xE000ED30)
TAED4 9096:880.128 - 0.497ms returns 0x01
TAED4 9096:881.152 JLINK_ReadReg(R15 (PC))
TAED4 9096:881.152 - 0.060ms returns 0x00401094
T9890 9096:890.368 JLINK_ReadReg(R15 (PC))
T9890 9096:890.368 - 0.114ms returns 0x00401094
T9890 9096:890.368 JLINK_ReadReg(R13 (SP))
T9890 9096:890.368 - 0.050ms returns 0x20003EC8
T9890 9096:890.368 JLINK_ReadMemHW(0x00401094, 0x0004 Bytes, ...)
T9890 9096:890.368   CPU_ReadMem(4 bytes @ 0x00401094)
T9890 9096:890.368   Data:  08 B5 21 4B
T9890 9096:891.392 - 0.789ms returns 0
T9890 9096:958.976 JLINK_ReadMemHW(0x004012FC, 0x0001 Bytes, ...)
T9890 9096:960.000   CPU_ReadMem(1 bytes @ 0x004012FC)
T9890 9096:962.048   Data:  80
T9890 9096:964.096 - 5.263ms returns 0
T9890 9097:021.440 JLINK_ReadReg(R15 (PC))
T9890 9097:024.512 - 2.306ms returns 0x00401094
T9890 9097:024.512 JLINK_GetNumBPUnits(Type = 0xFFFFFF02)
T9890 9097:025.536 - 0.143ms returns 0x06
T9890 9097:025.536 JLINK_SetBPEx(Addr = 0x004012FC, Type = 0xFFFFFFF2)
T9890 9097:025.536 - 0.070ms returns 0x00000001
T9890 9097:025.536 JLINK_GetBPInfo(BPHandle = 1)
T9890 9097:025.536 - 0.127ms returns 0x0
T9890 9097:025.536 JLINK_Go()
T9890 9097:025.536   CPU_WriteMem(4 bytes @ 0xE0002000)
T9890 9097:025.536   CPU_ReadMem(4 bytes @ 0xE0001000)
T9890 9097:026.560   CPU_WriteMem(4 bytes @ 0xE000ED30)
T9890 9097:027.584   CPU_WriteMem(4 bytes @ 0xE0002008)
T9890 9097:027.584   CPU_WriteMem(4 bytes @ 0xE000200C)
T9890 9097:027.584   CPU_WriteMem(4 bytes @ 0xE0002010)
T9890 9097:027.584   CPU_WriteMem(4 bytes @ 0xE0002014)
T9890 9097:027.584   CPU_WriteMem(4 bytes @ 0xE0002018)
T9890 9097:027.584   CPU_WriteMem(4 bytes @ 0xE000201C)
T9890 9097:029.632   CPU_WriteMem(4 bytes @ 0xE0001004)
T9890 9097:030.656   Memory map 'after startup completion point' is active
T9890 9097:030.656 - 5.689ms 
TAED4 9097:030.656 JLINK_IsHalted()
TAED4 9097:031.680 - 0.585ms returns FALSE
TAED4 9097:052.160 JLINK_IsHalted()
TAED4 9097:055.232 - 3.638ms returns TRUE
TAED4 9097:056.256 JLINK_GetMOEs(...)
TAED4 9097:056.256   CPU_ReadMem(4 bytes @ 0xE000ED30)
TAED4 9097:056.256 - 0.632ms returns 0x01
TAED4 9097:056.256 JLINK_ReadReg(R15 (PC))
TAED4 9097:056.256 - 0.055ms returns 0x004012FC
T9890 9097:062.400 JLINK_ReadReg(R15 (PC))
T9890 9097:062.400 - 0.170ms returns 0x004012FC
T9890 9097:063.424 JLINK_ReadReg(R13 (SP))
T9890 9097:063.424 - 0.069ms returns 0x20003EC0
T9890 9097:063.424 JLINK_ReadMemHW(0x004012FC, 0x0004 Bytes, ...)
T9890 9097:064.448   CPU_ReadMem(4 bytes @ 0x004012FC)
T9890 9097:065.472   Data:  80 B5 34 4B
T9890 9097:066.496 - 2.048ms returns 0
TB670 9097:119.744 JLINK_ReadMem(0x20000597, 0x1CB Bytes, ...)
TB670 9097:119.744   CPU_ReadMem(512 bytes @ 0x20000580)
TB670 9097:123.840    -- Updating C cache (512 bytes @ 0x20000580)
TB670 9097:123.840    -- Read from C cache (459 bytes @ 0x20000597)
TB670 9097:124.864   Data:  20 8C 05 00 20 94 05 00 20 94 05 00 20 9C 05 00 ...
TB670 9097:124.864 - 4.983ms returns 0
TB670 9097:169.920 JLINK_ReadMem(0x2000056A, 0x2D Bytes, ...)
TB670 9097:169.920   CPU_ReadMem(64 bytes @ 0x20000540)
TB670 9097:170.944    -- Updating C cache (64 bytes @ 0x20000540)
TB670 9097:170.944    -- Read from C cache (45 bytes @ 0x2000056A)
TB670 9097:170.944   Data:  00 20 64 05 00 20 64 05 00 20 6C 05 00 20 6C 05 ...
TB670 9097:170.944 - 1.540ms returns 0
TB670 9097:172.992 JLINK_ReadMem(0x20000762, 0x5A Bytes, ...)
TB670 9097:172.992   CPU_ReadMem(64 bytes @ 0x20000780)
TB670 9097:172.992    -- Updating C cache (64 bytes @ 0x20000780)
TB670 9097:172.992    -- Read from C cache (90 bytes @ 0x20000762)
TB670 9097:172.992   Data:  00 20 5C 07 00 20 5C 07 00 20 64 07 00 20 64 07 ...
TB670 9097:172.992 - 1.471ms returns 0
TB670 9097:177.088 JLINK_ReadMem(0x200007BC, 0x84 Bytes, ...)
TB670 9097:177.088   CPU_ReadMem(128 bytes @ 0x200007C0)
TB670 9097:179.136    -- Updating C cache (128 bytes @ 0x200007C0)
TB670 9097:179.136    -- Read from C cache (132 bytes @ 0x200007BC)
TB670 9097:179.136   Data:  B4 07 00 20 B4 07 00 20 BC 07 00 20 BC 07 00 20 ...
TB670 9097:179.136 - 1.840ms returns 0
TAED4 9097:259.008 JLINK_IsHalted()
TAED4 9097:259.008 - 0.301ms returns TRUE
T9890 9097:410.560 JLINK_ReadMemHW(0x004012FC, 0x0001 Bytes, ...)
T9890 9097:411.584   CPU_ReadMem(1 bytes @ 0x004012FC)
T9890 9097:412.608   Data:  80
T9890 9097:413.632 - 2.052ms returns 0
TAED4 9097:458.688 JLINK_IsHalted()
TAED4 9097:459.712 - 0.200ms returns TRUE
TAED4 9097:660.416 JLINK_IsHalted()
TAED4 9097:660.416 - 1.006ms returns TRUE
TAED4 9097:861.120 JLINK_IsHalted()
TAED4 9097:861.120 - 0.244ms returns TRUE
TAED4 9098:064.896 JLINK_IsHalted()
TAED4 9098:065.920 - 0.388ms returns TRUE
TAED4 9098:265.600 JLINK_IsHalted()
TAED4 9098:266.624 - 0.729ms returns TRUE
TAED4 9098:466.304 JLINK_IsHalted()
TAED4 9098:466.304 - 0.131ms returns TRUE
TAED4 9098:668.032 JLINK_IsHalted()
TAED4 9098:668.032 - 0.235ms returns TRUE
TAED4 9098:868.736 JLINK_IsHalted()
TAED4 9098:868.736 - 0.759ms returns TRUE
TAED4 9099:069.440 JLINK_IsHalted()
TAED4 9099:069.440 - 0.203ms returns TRUE
TAED4 9099:272.192 JLINK_IsHalted()
TAED4 9099:272.192 - 0.157ms returns TRUE
TAED4 9099:473.920 JLINK_IsHalted()
TAED4 9099:474.944 - 0.905ms returns TRUE
TAED4 9099:675.648 JLINK_IsHalted()
TAED4 9099:675.648 - 0.262ms returns TRUE
T9890 9099:832.320 JLINK_WriteU32(0xE000EDFC, 0x01000000)
T9890 9099:832.320   Debug reg: DEMCR
T9890 9099:833.344   CPU_WriteMem(4 bytes @ 0xE000EDFC)
T9890 9099:834.368 - 1.694ms returns 0 (0x00000000)
T9890 9099:834.368 JLINK_ReadMem(0xE0001000, 0x4 Bytes, ...)
T9890 9099:834.368   CPU_ReadMem(4 bytes @ 0xE0001000)
T9890 9099:835.392   Data:  01 00 00 40
T9890 9099:835.392   Debug reg: DWT_CTRL
T9890 9099:835.392 - 1.052ms returns 0
T9890 9099:835.392 JLINK_WriteU32(0xE0001000, 0x40000001)
T9890 9099:835.392   Debug reg: DWT_CTRL
T9890 9099:835.392   CPU_WriteMem(4 bytes @ 0xE0001000)
T9890 9099:835.392 - 0.941ms returns 0 (0x00000000)
T9890 9099:836.416 JLINK_WriteU32(0xE0001028, 0x00000100)
T9890 9099:836.416   Debug reg: DWT_FUNC[0]
T9890 9099:836.416 - 0.201ms returns 0 (0x00000000)
T9890 9099:836.416 JLINK_ReadMem(0xE0001028, 0x4 Bytes, ...)
T9890 9099:836.416   CPU_WriteMem(4 bytes @ 0xE0001028)
T9890 9099:837.440   CPU_ReadMem(4 bytes @ 0xE0001028)
T9890 9099:837.440   Data:  00 00 00 00
T9890 9099:837.440   Debug reg: DWT_FUNC[0]
T9890 9099:838.464 - 1.375ms returns 0
T9890 9099:838.464 JLINK_WriteU32(0xE0001024, 0x0000001F)
T9890 9099:838.464   Debug reg: DWT_MASK[0]
T9890 9099:838.464 - 0.143ms returns 0 (0x00000000)
T9890 9099:838.464 JLINK_ReadMem(0xE0001024, 0x4 Bytes, ...)
T9890 9099:838.464   CPU_WriteMem(4 bytes @ 0xE0001024)
T9890 9099:839.488   CPU_ReadMem(4 bytes @ 0xE0001024)
T9890 9099:839.488   Data:  0F 00 00 00
T9890 9099:839.488   Debug reg: DWT_MASK[0]
T9890 9099:839.488 - 1.423ms returns 0
T9890 9099:839.488 JLINK_WriteU32(0xE0001038, 0x00000100)
T9890 9099:839.488   Debug reg: DWT_FUNC[1]
T9890 9099:839.488 - 0.165ms returns 0 (0x00000000)
T9890 9099:839.488 JLINK_ReadMem(0xE0001038, 0x4 Bytes, ...)
T9890 9099:839.488   CPU_WriteMem(4 bytes @ 0xE0001038)
T9890 9099:840.512   CPU_ReadMem(4 bytes @ 0xE0001038)
T9890 9099:840.512   Data:  00 03 00 00
T9890 9099:840.512   Debug reg: DWT_FUNC[1]
T9890 9099:841.536 - 1.357ms returns 0
T9890 9099:841.536 JLINK_WriteU32(0xE0001034, 0x0000001F)
T9890 9099:841.536   Debug reg: DWT_MASK[1]
T9890 9099:841.536 - 0.112ms returns 0 (0x00000000)
T9890 9099:841.536 JLINK_ReadMem(0xE0001034, 0x4 Bytes, ...)
T9890 9099:841.536   CPU_WriteMem(4 bytes @ 0xE0001034)
T9890 9099:842.560   CPU_ReadMem(4 bytes @ 0xE0001034)
T9890 9099:842.560   Data:  0F 00 00 00
T9890 9099:842.560   Debug reg: DWT_MASK[1]
T9890 9099:843.584 - 1.414ms returns 0
T9890 9099:843.584 JLINK_WriteU32(0xE0001048, 0x00000100)
T9890 9099:843.584   Debug reg: DWT_FUNC[2]
T9890 9099:843.584 - 0.152ms returns 0 (0x00000000)
T9890 9099:843.584 JLINK_ReadMem(0xE0001048, 0x4 Bytes, ...)
T9890 9099:843.584   CPU_WriteMem(4 bytes @ 0xE0001048)
T9890 9099:843.584   CPU_ReadMem(4 bytes @ 0xE0001048)
T9890 9099:843.584   Data:  00 00 00 00
T9890 9099:843.584   Debug reg: DWT_FUNC[2]
T9890 9099:844.608 - 1.349ms returns 0
T9890 9099:844.608 JLINK_WriteU32(0xE0001044, 0x0000001F)
T9890 9099:844.608   Debug reg: DWT_MASK[2]
T9890 9099:844.608 - 0.142ms returns 0 (0x00000000)
T9890 9099:844.608 JLINK_ReadMem(0xE0001044, 0x4 Bytes, ...)
T9890 9099:844.608   CPU_WriteMem(4 bytes @ 0xE0001044)
T9890 9099:845.632   CPU_ReadMem(4 bytes @ 0xE0001044)
T9890 9099:845.632   Data:  0F 00 00 00
T9890 9099:845.632   Debug reg: DWT_MASK[2]
T9890 9099:845.632 - 1.348ms returns 0
T9890 9099:846.656 JLINK_WriteU32(0xE0001058, 0x00000100)
T9890 9099:846.656   Debug reg: DWT_FUNC[3]
T9890 9099:846.656 - 0.142ms returns 0 (0x00000000)
T9890 9099:846.656 JLINK_ReadMem(0xE0001058, 0x4 Bytes, ...)
T9890 9099:846.656   CPU_WriteMem(4 bytes @ 0xE0001058)
T9890 9099:846.656   CPU_ReadMem(4 bytes @ 0xE0001058)
T9890 9099:847.680   Data:  00 00 00 00
T9890 9099:847.680   Debug reg: DWT_FUNC[3]
T9890 9099:847.680 - 1.302ms returns 0
T9890 9099:847.680 JLINK_WriteU32(0xE0001054, 0x0000001F)
T9890 9099:847.680   Debug reg: DWT_MASK[3]
T9890 9099:847.680 - 0.154ms returns 0 (0x00000000)
T9890 9099:847.680 JLINK_ReadMem(0xE0001054, 0x4 Bytes, ...)
T9890 9099:847.680   CPU_WriteMem(4 bytes @ 0xE0001054)
T9890 9099:848.704   CPU_ReadMem(4 bytes @ 0xE0001054)
T9890 9099:849.728   Data:  0F 00 00 00
T9890 9099:849.728   Debug reg: DWT_MASK[3]
T9890 9099:849.728 - 1.829ms returns 0
T9890 9099:849.728 JLINK_WriteU32(0xE0001020, 0x00000000)
T9890 9099:849.728   Debug reg: DWT_COMP[0]
T9890 9099:849.728 - 0.127ms returns 0 (0x00000000)
T9890 9099:849.728 JLINK_WriteU32(0xE0001024, 0x00000000)
T9890 9099:849.728   Debug reg: DWT_MASK[0]
T9890 9099:849.728 - 0.096ms returns 0 (0x00000000)
T9890 9099:849.728 JLINK_WriteU32(0xE0001028, 0x00000000)
T9890 9099:849.728   Debug reg: DWT_FUNC[0]
T9890 9099:850.752 - 0.089ms returns 0 (0x00000000)
T9890 9099:850.752 JLINK_WriteU32(0xE0001030, 0x00000000)
T9890 9099:850.752   Debug reg: DWT_COMP[1]
T9890 9099:850.752 - 0.110ms returns 0 (0x00000000)
T9890 9099:850.752 JLINK_WriteU32(0xE0001034, 0x00000000)
T9890 9099:850.752   Debug reg: DWT_MASK[1]
T9890 9099:850.752 - 0.176ms returns 0 (0x00000000)
T9890 9099:850.752 JLINK_WriteU32(0xE0001038, 0x00000000)
T9890 9099:850.752   Debug reg: DWT_FUNC[1]
T9890 9099:850.752 - 0.101ms returns 0 (0x00000000)
T9890 9099:850.752 JLINK_WriteU32(0xE0001040, 0x00000000)
T9890 9099:850.752   Debug reg: DWT_COMP[2]
T9890 9099:850.752 - 0.101ms returns 0 (0x00000000)
T9890 9099:850.752 JLINK_WriteU32(0xE0001044, 0x00000000)
T9890 9099:851.776   Debug reg: DWT_MASK[2]
T9890 9099:851.776 - 0.152ms returns 0 (0x00000000)
T9890 9099:851.776 JLINK_WriteU32(0xE0001048, 0x00000000)
T9890 9099:851.776   Debug reg: DWT_FUNC[2]
T9890 9099:851.776 - 0.101ms returns 0 (0x00000000)
T9890 9099:851.776 JLINK_WriteU32(0xE0001050, 0x00000000)
T9890 9099:851.776   Debug reg: DWT_COMP[3]
T9890 9099:851.776 - 0.183ms returns 0 (0x00000000)
T9890 9099:851.776 JLINK_WriteU32(0xE0001054, 0x00000000)
T9890 9099:851.776   Debug reg: DWT_MASK[3]
T9890 9099:851.776 - 0.098ms returns 0 (0x00000000)
T9890 9099:851.776 JLINK_WriteU32(0xE0001058, 0x00000000)
T9890 9099:851.776   Debug reg: DWT_FUNC[3]
T9890 9099:851.776 - 0.102ms returns 0 (0x00000000)
T9890 9099:851.776 JLINK_GetBPInfo(BPHandle = 1)
T9890 9099:851.776 - 0.039ms returns 0x0
T9890 9099:851.776 JLINK_ClrBPEx(BPHandle = 0x00000001)
T9890 9099:851.776 - 0.039ms returns 0x00
T9890 9099:851.776 JLINK_ReadReg(R15 (PC))
T9890 9099:851.776 - 0.045ms returns 0x004012FC
T9890 9099:851.776 JLINK_Step()
T9890 9099:851.776    -- Read from flash cache (2 bytes @ 0x004012FC)
T9890 9099:851.776   CPU_ReadMem(4 bytes @ 0xE000ED18)
T9890 9099:852.800   CPU_WriteMem(4 bytes @ 0xE000ED18)
T9890 9099:853.824   CPU_ReadMem(4 bytes @ 0xE000ED18)
T9890 9099:853.824   CPU_WriteMem(4 bytes @ 0xE000ED18)
T9890 9099:854.848   CPU_ReadMem(4 bytes @ 0xE0001004)
T9890 9099:855.872   CPU_WriteMem(8 bytes @ 0x20003EB8)
T9890 9099:855.872   -- Simulated
T9890 9099:855.872 - 3.984ms returns 0
TAED4 9099:855.872 JLINK_IsHalted()
TAED4 9099:855.872 - 0.087ms returns TRUE
TAED4 9099:855.872 JLINK_GetMOEs(...)
TAED4 9099:855.872 - 0.036ms returns 0x01
TAED4 9099:855.872 JLINK_ReadReg(R15 (PC))
TAED4 9099:855.872 - 0.037ms returns 0x004012FE
T9890 9099:867.136 JLINK_ReadReg(R15 (PC))
T9890 9099:867.136 - 0.099ms returns 0x004012FE
T9890 9099:867.136 JLINK_ReadReg(R13 (SP))
T9890 9099:867.136 - 0.068ms returns 0x20003EB8
T9890 9099:867.136 JLINK_ReadMemHW(0x004012FE, 0x0004 Bytes, ...)
T9890 9099:867.136   CPU_ReadMem(4 bytes @ 0x004012FE)
T9890 9099:868.160   Data:  34 4B 98 47
T9890 9099:868.160 - 1.012ms returns 0
TB670 9099:931.648 JLINK_ReadMem(0x2000056A, 0x2D6 Bytes, ...)
TB670 9099:931.648    -- Read from C cache (726 bytes @ 0x2000056A)
TB670 9099:931.648   Data:  00 20 64 05 00 20 64 05 00 20 6C 05 00 20 6C 05 ...
TB670 9099:931.648 - 0.453ms returns 0
TAED4 9100:058.624 JLINK_IsHalted()
TAED4 9100:059.648 - 0.937ms returns TRUE
T9890 9100:210.176 JLINK_ReadMemHW(0x00400138, 0x0001 Bytes, ...)
T9890 9100:210.176   CPU_ReadMem(1 bytes @ 0x00400138)
T9890 9100:212.224   Data:  10
T9890 9100:212.224 - 2.631ms returns 0
TAED4 9100:261.376 JLINK_IsHalted()
TAED4 9100:262.400 - 1.477ms returns TRUE
TAED4 9100:464.128 JLINK_IsHalted()
TAED4 9100:468.224 - 3.971ms returns TRUE
T9890 9100:527.616 JLINK_ReadReg(R15 (PC))
T9890 9100:527.616 - 0.712ms returns 0x004012FE
T9890 9100:527.616 JLINK_Step()
T9890 9100:528.640    -- Read from flash cache (2 bytes @ 0x004012FE)
T9890 9100:528.640    -- Read from flash cache (4 bytes @ 0x004013D0)
T9890 9100:529.664   -- Simulated
T9890 9100:529.664 - 1.558ms returns 0
TAED4 9100:530.688 JLINK_IsHalted()
TAED4 9100:530.688 - 0.131ms returns TRUE
TAED4 9100:530.688 JLINK_GetMOEs(...)
TAED4 9100:531.712 - 0.218ms returns 0x01
TAED4 9100:531.712 JLINK_ReadReg(R15 (PC))
TAED4 9100:531.712 - 0.154ms returns 0x00401300
T9890 9100:539.904 JLINK_ReadReg(R15 (PC))
T9890 9100:540.928 - 0.528ms returns 0x00401300
T9890 9100:540.928 JLINK_ReadReg(R13 (SP))
T9890 9100:540.928 - 0.170ms returns 0x20003EB8
T9890 9100:541.952 JLINK_ReadMemHW(0x00401300, 0x0004 Bytes, ...)
T9890 9100:541.952   CPU_ReadMem(4 bytes @ 0x00401300)
T9890 9100:544.000   Data:  98 47 34 4B
T9890 9100:544.000 - 2.593ms returns 0
T9890 9100:545.024 JLINK_ReadReg(R15 (PC))
T9890 9100:545.024 - 0.182ms returns 0x00401300
T9890 9100:545.024 JLINK_Step()
T9890 9100:545.024    -- Read from flash cache (2 bytes @ 0x00401300)
T9890 9100:546.048   -- Simulated
T9890 9100:546.048 - 0.541ms returns 0
TAED4 9100:546.048 JLINK_IsHalted()
TAED4 9100:546.048 - 0.114ms returns TRUE
TAED4 9100:546.048 JLINK_GetMOEs(...)
TAED4 9100:546.048 - 0.103ms returns 0x01
TAED4 9100:547.072 JLINK_ReadReg(R15 (PC))
TAED4 9100:547.072 - 0.105ms returns 0x00400138
T9890 9100:556.288 JLINK_ReadReg(R15 (PC))
T9890 9100:556.288 - 0.234ms returns 0x00400138
T9890 9100:556.288 JLINK_ReadReg(R13 (SP))
T9890 9100:556.288 - 0.180ms returns 0x20003EB8
T9890 9100:557.312 JLINK_ReadMemHW(0x00400138, 0x0004 Bytes, ...)
T9890 9100:563.456   CPU_ReadMem(4 bytes @ 0x00400138)
T9890 9100:573.696   Data:  10 B5 0E 48
T9890 9100:581.888 - 24.817ms returns 0
T9890 9100:587.008 JLINK_ReadReg(R0)
T9890 9100:589.056 - 1.991ms returns 0x0040724C
T9890 9100:590.080 JLINK_ReadReg(R1)
T9890 9100:590.080 - 0.139ms returns 0x00000000
T9890 9100:590.080 JLINK_ReadReg(R2)
T9890 9100:590.080 - 0.134ms returns 0x00400000
T9890 9100:590.080 JLINK_ReadReg(R3)
T9890 9100:591.104 - 0.135ms returns 0x00400139
T9890 9100:591.104 JLINK_ReadReg(R4)
T9890 9100:591.104 - 0.268ms returns 0x00000001
T9890 9100:591.104 JLINK_ReadReg(R5)
T9890 9100:591.104 - 0.138ms returns 0x00400D25
T9890 9100:592.128 JLINK_ReadReg(R6)
T9890 9100:592.128 - 0.134ms returns 0x00000030
T9890 9100:592.128 JLINK_ReadReg(R7)
T9890 9100:592.128 - 0.134ms returns 0x40018000
T9890 9100:592.128 JLINK_ReadReg(R8)
T9890 9100:592.128 - 0.133ms returns 0xF2CD86A5
T9890 9100:593.152 JLINK_ReadReg(R9)
T9890 9100:593.152 - 0.134ms returns 0xFE84C8CF
T9890 9100:593.152 JLINK_ReadReg(R10)
T9890 9100:593.152 - 0.134ms returns 0x8EF7BA9A
T9890 9100:593.152 JLINK_ReadReg(R11)
T9890 9100:593.152 - 0.134ms returns 0x6590C9D4
T9890 9100:593.152 JLINK_ReadReg(R12)
T9890 9100:593.152 - 0.134ms returns 0x00000002
T9890 9100:593.152 JLINK_ReadReg(R13 (SP))
T9890 9100:593.152 - 0.134ms returns 0x20003EB8
T9890 9100:593.152 JLINK_ReadReg(R14)
T9890 9100:593.152 - 0.134ms returns 0x00401303
T9890 9100:594.176 JLINK_ReadReg(R15 (PC))
T9890 9100:594.176 - 0.135ms returns 0x00400138
T9890 9100:594.176 JLINK_ReadReg(XPSR)
T9890 9100:594.176 - 0.135ms returns 0x61000000
T9890 9100:594.176 JLINK_ReadReg(MSP)
T9890 9100:594.176 - 0.133ms returns 0x20003EB8
T9890 9100:595.200 JLINK_ReadReg(PSP)
T9890 9100:595.200 - 0.134ms returns 0xC9283C6C
T9890 9100:595.200 JLINK_ReadReg(PRIMASK)
T9890 9100:595.200 - 0.134ms returns 0x00000000
T9890 9100:595.200 JLINK_ReadReg(BASEPRI)
T9890 9100:595.200 - 0.136ms returns 0x00000000
T9890 9100:596.224 JLINK_ReadReg(FAULTMASK)
T9890 9100:596.224 - 0.135ms returns 0x00000000
T9890 9100:596.224 JLINK_ReadReg(CONTROL)
T9890 9100:596.224 - 0.133ms returns 0x00000000
T9890 9100:597.248 JLINK_ReadMemHW(0x00401302, 0x0004 Bytes, ...)
T9890 9100:605.440   CPU_ReadMem(4 bytes @ 0x00401302)
T9890 9100:610.560   Data:  34 4B 98 47
T9890 9100:617.728 - 21.527ms returns 0
T9890 9100:621.824 JLINK_ReadMemHW(0x00401302, 0x0002 Bytes, ...)
T9890 9100:627.968   CPU_ReadMem(2 bytes @ 0x00401302)
T9890 9100:634.112   Data:  34 4B
T9890 9100:641.280 - 18.562ms returns 0
T9890 9100:644.352 JLINK_ReadReg(R15 (PC))
T9890 9100:654.592 - 9.687ms returns 0x00400138
T9890 9100:657.664 JLINK_SetBPEx(Addr = 0x00401302, Type = 0xFFFFFFF2)
T9890 9100:662.784 - 5.496ms returns 0x00000002
T9890 9100:666.880 JLINK_GetBPInfo(BPHandle = 2)
T9890 9100:666.880 - 0.101ms returns 0x0
T9890 9100:666.880 JLINK_Go()
T9890 9100:666.880   CPU_WriteMem(4 bytes @ 0xE0002000)
T9890 9100:666.880   CPU_ReadMem(4 bytes @ 0xE0001000)
T9890 9100:668.928   CPU_WriteMem(4 bytes @ 0xE000ED30)
T9890 9100:669.952   CPU_WriteMem(4 bytes @ 0xE0001020)
T9890 9100:669.952   CPU_WriteMem(4 bytes @ 0xE0001030)
T9890 9100:669.952   CPU_WriteMem(4 bytes @ 0xE0001040)
T9890 9100:669.952   CPU_WriteMem(4 bytes @ 0xE0001050)
T9890 9100:670.976   CPU_WriteMem(4 bytes @ 0xE0001024)
T9890 9100:670.976   CPU_WriteMem(4 bytes @ 0xE0001034)
T9890 9100:670.976   CPU_WriteMem(4 bytes @ 0xE0001044)
T9890 9100:670.976   CPU_WriteMem(4 bytes @ 0xE0001054)
T9890 9100:670.976   CPU_WriteMem(4 bytes @ 0xE0001028)
T9890 9100:670.976   CPU_WriteMem(4 bytes @ 0xE0001038)
T9890 9100:670.976   CPU_WriteMem(4 bytes @ 0xE0001048)
T9890 9100:670.976   CPU_WriteMem(4 bytes @ 0xE0001058)
T9890 9100:670.976   CPU_WriteMem(4 bytes @ 0xE0002008)
T9890 9100:675.072   CPU_WriteMem(4 bytes @ 0xE0001004)
T9890 9100:683.264 - 16.441ms 
TAED4 9100:688.384 JLINK_IsHalted()
TAED4 9100:691.456 - 3.408ms returns FALSE
TAED4 9100:719.104 JLINK_IsHalted()
TAED4 9100:722.176 - 3.697ms returns TRUE
TAED4 9100:722.176 JLINK_GetMOEs(...)
TAED4 9100:722.176   CPU_ReadMem(4 bytes @ 0xE000ED30)
TAED4 9100:723.200 - 0.539ms returns 0x01
TAED4 9100:723.200 JLINK_ReadReg(R15 (PC))
TAED4 9100:723.200 - 0.035ms returns 0x00401302
T9890 9100:729.344 JLINK_ReadReg(R15 (PC))
T9890 9100:729.344 - 0.124ms returns 0x00401302
T9890 9100:729.344 JLINK_ReadReg(R13 (SP))
T9890 9100:730.368 - 0.125ms returns 0x20003EB8
T9890 9100:731.392 JLINK_ReadMemHW(0x00401302, 0x0004 Bytes, ...)
T9890 9100:731.392   CPU_ReadMem(4 bytes @ 0x00401302)
T9890 9100:732.416   Data:  34 4B 98 47
T9890 9100:732.416 - 1.086ms returns 0
TB670 9100:797.952 JLINK_ReadMem(0x2000056A, 0x2D6 Bytes, ...)
TB670 9100:797.952   CPU_ReadMem(768 bytes @ 0x20000540)
TB670 9100:803.072    -- Updating C cache (768 bytes @ 0x20000540)
TB670 9100:803.072    -- Read from C cache (726 bytes @ 0x2000056A)
TB670 9100:803.072   Data:  00 20 64 05 00 20 64 05 00 20 6C 05 00 20 6C 05 ...
TB670 9100:803.072 - 5.328ms returns 0
TAED4 9100:922.880 JLINK_IsHalted()
TAED4 9100:923.904 - 0.309ms returns TRUE
T9890 9101:085.696 JLINK_ReadMemHW(0x00400138, 0x0001 Bytes, ...)
T9890 9101:085.696   CPU_ReadMem(1 bytes @ 0x00400138)
T9890 9101:086.720   Data:  10
T9890 9101:086.720 - 1.245ms returns 0
TAED4 9101:124.608 JLINK_IsHalted()
TAED4 9101:124.608 - 0.213ms returns TRUE
T9890 9101:159.424 JLINK_ReadMemHW(0x00401090, 0x0001 Bytes, ...)
T9890 9101:159.424   CPU_ReadMem(1 bytes @ 0x00401090)
T9890 9101:161.472   Data:  70
T9890 9101:161.472 - 1.761ms returns 0
TAED4 9101:325.312 JLINK_IsHalted()
TAED4 9101:326.336 - 0.993ms returns TRUE
TAED4 9101:527.040 JLINK_IsHalted()
TAED4 9101:528.064 - 0.153ms returns TRUE
TAED4 9101:727.744 JLINK_IsHalted()
TAED4 9101:727.744 - 0.182ms returns TRUE
T9890 9101:802.496 JLINK_GetBPInfo(BPHandle = 2)
T9890 9101:803.520 - 1.235ms returns 0x0
T9890 9101:803.520 JLINK_ClrBPEx(BPHandle = 0x00000002)
T9890 9101:804.544 - 0.300ms returns 0x00
T9890 9101:804.544 JLINK_ReadReg(R15 (PC))
T9890 9101:804.544 - 0.098ms returns 0x00401302
T9890 9101:804.544 JLINK_Step()
T9890 9101:805.568    -- Read from flash cache (2 bytes @ 0x00401302)
T9890 9101:805.568   CPU_ReadMem(4 bytes @ 0xE0001004)
T9890 9101:805.568    -- Read from flash cache (4 bytes @ 0x004013D4)
T9890 9101:806.592   -- Simulated
T9890 9101:806.592 - 2.143ms returns 0
TAED4 9101:806.592 JLINK_IsHalted()
TAED4 9101:806.592 - 0.063ms returns TRUE
TAED4 9101:806.592 JLINK_GetMOEs(...)
TAED4 9101:806.592 - 0.034ms returns 0x01
TAED4 9101:806.592 JLINK_ReadReg(R15 (PC))
TAED4 9101:806.592 - 0.035ms returns 0x00401304
T9890 9101:816.832 JLINK_ReadReg(R15 (PC))
T9890 9101:816.832 - 0.187ms returns 0x00401304
T9890 9101:816.832 JLINK_ReadReg(R13 (SP))
T9890 9101:817.856 - 0.062ms returns 0x20003EB8
T9890 9101:817.856 JLINK_ReadMemHW(0x00401304, 0x0004 Bytes, ...)
T9890 9101:817.856   CPU_ReadMem(4 bytes @ 0x00401304)
T9890 9101:817.856   Data:  98 47 34 4B
T9890 9101:817.856 - 0.942ms returns 0
T9890 9101:817.856 JLINK_ReadReg(R15 (PC))
T9890 9101:818.880 - 0.124ms returns 0x00401304
T9890 9101:818.880 JLINK_Step()
T9890 9101:818.880    -- Read from flash cache (2 bytes @ 0x00401304)
T9890 9101:818.880   -- Simulated
T9890 9101:818.880 - 0.297ms returns 0
TAED4 9101:818.880 JLINK_IsHalted()
TAED4 9101:818.880 - 0.056ms returns TRUE
TAED4 9101:818.880 JLINK_GetMOEs(...)
TAED4 9101:818.880 - 0.037ms returns 0x01
TAED4 9101:818.880 JLINK_ReadReg(R15 (PC))
TAED4 9101:819.904 - 0.038ms returns 0x00401090
T9890 9101:829.120 JLINK_ReadReg(R15 (PC))
T9890 9101:830.144 - 0.605ms returns 0x00401090
T9890 9101:830.144 JLINK_ReadReg(R13 (SP))
T9890 9101:830.144 - 0.034ms returns 0x20003EB8
T9890 9101:830.144 JLINK_ReadMemHW(0x00401090, 0x0004 Bytes, ...)
T9890 9101:830.144   CPU_ReadMem(4 bytes @ 0x00401090)
T9890 9101:830.144   Data:  70 47 FE E7
T9890 9101:830.144 - 0.878ms returns 0
T9890 9101:831.168 JLINK_ReadReg(R0)
T9890 9101:831.168 - 0.114ms returns 0x07270E00
T9890 9101:831.168 JLINK_ReadReg(R1)
T9890 9101:831.168 - 0.067ms returns 0x2000000C
T9890 9101:831.168 JLINK_ReadReg(R2)
T9890 9101:831.168 - 0.038ms returns 0x04000500
T9890 9101:831.168 JLINK_ReadReg(R3)
T9890 9101:831.168 - 0.036ms returns 0x00401091
T9890 9101:831.168 JLINK_ReadReg(R4)
T9890 9101:831.168 - 0.036ms returns 0x00000001
T9890 9101:831.168 JLINK_ReadReg(R5)
T9890 9101:831.168 - 0.036ms returns 0x00400D25
T9890 9101:831.168 JLINK_ReadReg(R6)
T9890 9101:831.168 - 0.036ms returns 0x00000030
T9890 9101:832.192 JLINK_ReadReg(R7)
T9890 9101:832.192 - 0.036ms returns 0x40018000
T9890 9101:832.192 JLINK_ReadReg(R8)
T9890 9101:832.192 - 0.036ms returns 0xF2CD86A5
T9890 9101:832.192 JLINK_ReadReg(R9)
T9890 9101:832.192 - 0.036ms returns 0xFE84C8CF
T9890 9101:832.192 JLINK_ReadReg(R10)
T9890 9101:832.192 - 0.037ms returns 0x8EF7BA9A
T9890 9101:832.192 JLINK_ReadReg(R11)
T9890 9101:832.192 - 0.036ms returns 0x6590C9D4
T9890 9101:832.192 JLINK_ReadReg(R12)
T9890 9101:832.192 - 0.036ms returns 0x00000002
T9890 9101:832.192 JLINK_ReadReg(R13 (SP))
T9890 9101:832.192 - 0.079ms returns 0x20003EB8
T9890 9101:832.192 JLINK_ReadReg(R14)
T9890 9101:832.192 - 0.039ms returns 0x00401307
T9890 9101:832.192 JLINK_ReadReg(R15 (PC))
T9890 9101:832.192 - 0.036ms returns 0x00401090
T9890 9101:832.192 JLINK_ReadReg(XPSR)
T9890 9101:832.192 - 0.036ms returns 0x21000000
T9890 9101:833.216 JLINK_ReadReg(MSP)
T9890 9101:833.216 - 0.036ms returns 0x20003EB8
T9890 9101:833.216 JLINK_ReadReg(PSP)
T9890 9101:833.216 - 0.036ms returns 0xC9283C6C
T9890 9101:833.216 JLINK_ReadReg(PRIMASK)
T9890 9101:833.216 - 0.036ms returns 0x00000000
T9890 9101:833.216 JLINK_ReadReg(BASEPRI)
T9890 9101:833.216 - 0.035ms returns 0x00000000
T9890 9101:833.216 JLINK_ReadReg(FAULTMASK)
T9890 9101:833.216 - 0.036ms returns 0x00000000
T9890 9101:833.216 JLINK_ReadReg(CONTROL)
T9890 9101:833.216 - 0.035ms returns 0x00000000
T9890 9101:833.216 JLINK_ReadMemHW(0x00401306, 0x0004 Bytes, ...)
T9890 9101:834.240   CPU_ReadMem(4 bytes @ 0x00401306)
T9890 9101:834.240   Data:  34 4B 98 47
T9890 9101:835.264 - 1.822ms returns 0
T9890 9101:835.264 JLINK_ReadMemHW(0x00401306, 0x0002 Bytes, ...)
T9890 9101:835.264   CPU_ReadMem(2 bytes @ 0x00401306)
T9890 9101:836.288   Data:  34 4B
T9890 9101:836.288 - 0.911ms returns 0
T9890 9101:836.288 JLINK_ReadReg(R15 (PC))
T9890 9101:837.312 - 0.100ms returns 0x00401090
T9890 9101:837.312 JLINK_SetBPEx(Addr = 0x00401306, Type = 0xFFFFFFF2)
T9890 9101:837.312 - 0.064ms returns 0x00000003
T9890 9101:837.312 JLINK_GetBPInfo(BPHandle = 3)
T9890 9101:837.312 - 0.052ms returns 0x0
T9890 9101:837.312 JLINK_Go()
T9890 9101:837.312   CPU_WriteMem(4 bytes @ 0xE0002000)
T9890 9101:838.336   CPU_ReadMem(4 bytes @ 0xE0001000)
T9890 9101:838.336   CPU_WriteMem(4 bytes @ 0xE000ED30)
T9890 9101:838.336   CPU_WriteMem(4 bytes @ 0xE0002008)
T9890 9101:839.360   CPU_WriteMem(4 bytes @ 0xE0001004)
T9890 9101:842.432 - 4.703ms 
TAED4 9101:842.432 JLINK_IsHalted()
TAED4 9101:845.504 - 3.219ms returns TRUE
TAED4 9101:845.504 JLINK_GetMOEs(...)
TAED4 9101:845.504   CPU_ReadMem(4 bytes @ 0xE000ED30)
TAED4 9101:846.528 - 0.536ms returns 0x01
TAED4 9101:846.528 JLINK_ReadReg(R15 (PC))
TAED4 9101:846.528 - 0.077ms returns 0x00401306
T9890 9101:852.672 JLINK_ReadReg(R15 (PC))
T9890 9101:852.672 - 0.146ms returns 0x00401306
T9890 9101:852.672 JLINK_ReadReg(R13 (SP))
T9890 9101:852.672 - 0.072ms returns 0x20003EB8
T9890 9101:852.672 JLINK_ReadMemHW(0x00401306, 0x0004 Bytes, ...)
T9890 9101:853.696   CPU_ReadMem(4 bytes @ 0x00401306)
T9890 9101:854.720   Data:  34 4B 98 47
T9890 9101:854.720 - 0.929ms returns 0
TB670 9101:944.832 JLINK_ReadMem(0x2000056A, 0x2D6 Bytes, ...)
TB670 9101:945.856   CPU_ReadMem(768 bytes @ 0x20000540)
TB670 9101:950.976    -- Updating C cache (768 bytes @ 0x20000540)
TB670 9101:950.976    -- Read from C cache (726 bytes @ 0x2000056A)
TB670 9101:950.976   Data:  00 20 64 05 00 20 64 05 00 20 6C 05 00 20 6C 05 ...
TB670 9101:950.976 - 5.777ms returns 0
TAED4 9102:046.208 JLINK_IsHalted()
TAED4 9102:046.208 - 0.370ms returns TRUE
TAED4 9102:247.936 JLINK_IsHalted()
TAED4 9102:247.936 - 0.200ms returns TRUE
T9890 9102:256.128 JLINK_ReadMemHW(0x00400D9C, 0x0001 Bytes, ...)
T9890 9102:256.128   CPU_ReadMem(1 bytes @ 0x00400D9C)
T9890 9102:257.152   Data:  30
T9890 9102:258.176 - 1.900ms returns 0
TAED4 9102:448.640 JLINK_IsHalted()
TAED4 9102:448.640 - 0.836ms returns TRUE
TAED4 9102:649.344 JLINK_IsHalted()
TAED4 9102:649.344 - 0.169ms returns TRUE
TAED4 9102:850.048 JLINK_IsHalted()
TAED4 9102:850.048 - 0.170ms returns TRUE
T9890 9103:034.368 JLINK_GetBPInfo(BPHandle = 3)
T9890 9103:034.368 - 0.339ms returns 0x0
T9890 9103:034.368 JLINK_ClrBPEx(BPHandle = 0x00000003)
T9890 9103:034.368 - 0.735ms returns 0x00
T9890 9103:035.392 JLINK_ReadReg(R15 (PC))
T9890 9103:035.392 - 0.177ms returns 0x00401306
